T2F68 000:007.919   SEGGER J-Link V7.22b Log File
T2F68 000:008.008   DLL Compiled: Jun 17 2021 17:22:49
T2F68 000:008.013   Logging started @ 2021-11-04 14:55
T2F68 000:008.018 - 8.020ms
T2F68 000:008.025 JLINK_SetWarnOutHandler(...)
T2F68 000:008.031 - 0.008ms
T2F68 000:008.037 JLINK_OpenEx(...)
T2F68 000:008.962   Firmware: Silicon Labs J-Link Pro OB compiled Sep 16 2020 17:10:58
T2F68 000:009.214   Firmware: Silicon Labs J-Link Pro OB compiled Sep 16 2020 17:10:58
T2F68 000:010.039   Hardware: V4.00
T2F68 000:010.053   S/N: 440055149
T2F68 000:010.061   OEM: SEGGER
T2F68 000:010.071   Feature(s): RDI, FlashBP
T2F68 000:010.841   TELNET listener socket opened on port 19021
T2F68 000:010.980   WEBSRV Starting webserver
T2F68 000:011.057   WEBSRV Webserver running on local port 19080
T2F68 000:011.066 - 3.033ms returns "O.K."
T2F68 000:011.079 JLINK_GetEmuCaps()
T2F68 000:011.084 - 0.007ms returns 0xB8EA5A33
T2F68 000:011.093 JLINK_TIF_GetAvailable(...)
T2F68 000:011.184 - 0.097ms
T2F68 000:011.197 JLINK_SetErrorOutHandler(...)
T2F68 000:011.202 - 0.007ms
T2F68 000:011.217 JLINK_ExecCommand("ProjectFile = "D:\EFR32\efr32_baremetal\baremetal_test\JLinkSettings.ini"", ...). 
T2F68 000:019.430   Device "EFR32FG1VXXXF128" selected.
T2F68 000:019.620 - 8.408ms returns 0x00
T2F68 000:019.640 JLINK_ExecCommand("Device = EFR32FG1V131F128GM32", ...). 
T2F68 000:019.912   Device "EFR32FG1VXXXF128" selected.
T2F68 000:020.056 - 0.413ms returns 0x00
T2F68 000:020.069 JLINK_GetHardwareVersion()
T2F68 000:020.074 - 0.007ms returns 40000
T2F68 000:020.080 JLINK_GetDLLVersion()
T2F68 000:020.084 - 0.006ms returns 72202
T2F68 000:020.090 JLINK_GetOEMString(...)
T2F68 000:020.095 JLINK_GetFirmwareString(...)
T2F68 000:020.103 - 0.009ms
T2F68 000:020.118 JLINK_GetDLLVersion()
T2F68 000:020.123 - 0.007ms returns 72202
T2F68 000:020.128 JLINK_GetCompileDateTime()
T2F68 000:020.133 - 0.006ms
T2F68 000:020.142 JLINK_GetFirmwareString(...)
T2F68 000:020.147 - 0.007ms
T2F68 000:020.155 JLINK_GetHardwareVersion()
T2F68 000:020.160 - 0.006ms returns 40000
T2F68 000:020.168 JLINK_GetSN()
T2F68 000:020.173 - 0.007ms returns 440055149
T2F68 000:020.181 JLINK_GetOEMString(...)
T2F68 000:020.194 JLINK_TIF_Select(JLINKARM_TIF_SWD)
T2F68 000:020.685 - 0.499ms returns 0x00
T2F68 000:020.698 JLINK_HasError()
T2F68 000:020.709 JLINK_SetSpeed(2000)
T2F68 000:020.772 - 0.067ms
T2F68 000:020.781 JLINK_GetId()
T2F68 000:020.945   InitTarget() start
T2F68 000:020.954    J-Link Script File: Executing InitTarget()
T2F68 000:020.961    J-Link Script File: This J-Link does not support PCode execution in the FW which is required for InitTarget(). Executing InitTarget_Fallback() instead
T2F68 000:023.588   InitTarget() end
T2F68 000:023.937   Found SW-DP with ID 0x2BA01477
T2F68 000:025.860   Old FW that does not support reading DPIDR via DAP jobs
T2F68 000:028.107   DPv0 detected
T2F68 000:028.121   Scanning AP map to find all available APs
T2F68 000:030.365   AP[1]: Stopped AP scan as end of AP map has been reached
T2F68 000:030.383   AP[0]: AHB-AP (IDR: 0x24770011)
T2F68 000:030.393   Iterating through AP map to find AHB-AP to use
T2F68 000:032.453   AP[0]: Core found
T2F68 000:032.469   AP[0]: AHB-AP ROM base: 0xE00FF000
T2F68 000:033.895   CPUID register: 0x410FC241. Implementer code: 0x41 (ARM)
T2F68 000:033.907   Found Cortex-M4 r0p1, Little endian.
T2F68 000:134.746   -- Max. mem block: 0x00001C68
T2F68 000:134.874   CPU_ReadMem(4 bytes @ 0xE000EDF0)
T2F68 000:135.696   CPU_WriteMem(4 bytes @ 0xE000EDF0)
T2F68 000:136.125   CPU_ReadMem(4 bytes @ 0xE0002000)
T2F68 000:136.572   FPUnit: 6 code (BP) slots and 2 literal slots
T2F68 000:136.587   CPU_ReadMem(4 bytes @ 0xE000EDFC)
T2F68 000:136.952   CPU_WriteMem(4 bytes @ 0xE000EDFC)
T2F68 000:137.314   CPU_ReadMem(4 bytes @ 0xE0001000)
T2F68 000:137.706   CPU_WriteMem(4 bytes @ 0xE0001000)
T2F68 000:138.063   CPU_ReadMem(4 bytes @ 0xE000ED88)
T2F68 000:138.757   CPU_WriteMem(4 bytes @ 0xE000ED88)
T2F68 000:139.088   CPU_ReadMem(4 bytes @ 0xE000ED88)
T2F68 000:139.441   CPU_WriteMem(4 bytes @ 0xE000ED88)
T2F68 000:139.765   CoreSight components:
T2F68 000:139.780   ROMTbl[0] @ E00FF000
T2F68 000:139.789   CPU_ReadMem(64 bytes @ 0xE00FF000)
T2F68 000:140.615   CPU_ReadMem(32 bytes @ 0xE000EFE0)
T2F68 000:141.215   ROMTbl[0][0]: E000E000, CID: B105E00D, PID: 000BB00C SCS-M7
T2F68 000:141.228   CPU_ReadMem(32 bytes @ 0xE0001FE0)
T2F68 000:142.211   ROMTbl[0][1]: E0001000, CID: B105E00D, PID: 003BB002 DWT
T2F68 000:142.225   CPU_ReadMem(32 bytes @ 0xE0002FE0)
T2F68 000:142.813   ROMTbl[0][2]: E0002000, CID: B105E00D, PID: 002BB003 FPB
T2F68 000:142.827   CPU_ReadMem(32 bytes @ 0xE0000FE0)
T2F68 000:143.442   ROMTbl[0][3]: E0000000, CID: B105E00D, PID: 003BB001 ITM
T2F68 000:143.456   CPU_ReadMem(32 bytes @ 0xE0040FE0)
T2F68 000:144.041   ROMTbl[0][4]: E0040000, CID: B105900D, PID: 003BB923 TPIU-Lite
T2F68 000:144.312 - 123.539ms returns 0x2BA01477
T2F68 000:144.328 JLINK_GetDLLVersion()
T2F68 000:144.334 - 0.008ms returns 72202
T2F68 000:144.340 JLINK_CORE_GetFound()
T2F68 000:144.344 - 0.006ms returns 0xE0000FF
T2F68 000:144.350 JLINK_GetDebugInfo(0x100 = JLINKARM_ROM_TABLE_ADDR_INDEX)
T2F68 000:144.356   Value=0xE00FF000
T2F68 000:144.362 - 0.014ms returns 0
T2F68 000:144.376 JLINK_GetDebugInfo(0x100 = JLINKARM_ROM_TABLE_ADDR_INDEX)
T2F68 000:144.381   Value=0xE00FF000
T2F68 000:144.388 - 0.014ms returns 0
T2F68 000:144.393 JLINK_GetDebugInfo(0x101 = JLINKARM_DEBUG_INFO_ETM_ADDR_INDEX)
T2F68 000:144.398   Value=0x00000000
T2F68 000:144.404 - 0.013ms returns 0
T2F68 000:144.414 JLINK_ReadMemEx(0xE0041FF0, 0x10 Bytes, Flags = 0x02000004)
T2F68 000:144.431   CPU_ReadMem(16 bytes @ 0xE0041FF0)
T2F68 000:145.252   Data:  00 00 00 00 00 00 00 00 00 00 00 00 00 00 00 00
T2F68 000:145.264 - 0.853ms returns 16 (0x10)
T2F68 000:145.273 JLINK_GetDebugInfo(0x102 = JLINKARM_DEBUG_INFO_MTB_ADDR_INDEX)
T2F68 000:145.279   Value=0x00000000
T2F68 000:145.285 - 0.014ms returns 0
T2F68 000:145.291 JLINK_GetDebugInfo(0x103 = JLINKARM_DEBUG_INFO_TPIU_ADDR_INDEX)
T2F68 000:145.296   Value=0xE0040000
T2F68 000:145.302 - 0.013ms returns 0
T2F68 000:145.308 JLINK_GetDebugInfo(0x104 = JLINKARM_DEBUG_INFO_ITM_ADDR_INDEX)
T2F68 000:145.312   Value=0xE0000000
T2F68 000:145.319 - 0.013ms returns 0
T2F68 000:145.325 JLINK_GetDebugInfo(0x105 = JLINKARM_DEBUG_INFO_DWT_ADDR_INDEX)
T2F68 000:145.331   Value=0xE0001000
T2F68 000:145.337 - 0.014ms returns 0
T2F68 000:145.342 JLINK_GetDebugInfo(0x106 = JLINKARM_DEBUG_INFO_FPB_ADDR_INDEX)
T2F68 000:145.347   Value=0xE0002000
T2F68 000:145.353 - 0.013ms returns 0
T2F68 000:145.360 JLINK_GetDebugInfo(0x107 = JLINKARM_DEBUG_INFO_NVIC_ADDR_INDEX)
T2F68 000:145.365   Value=0xE000E000
T2F68 000:145.371 - 0.013ms returns 0
T2F68 000:145.377 JLINK_GetDebugInfo(0x10C = JLINKARM_DEBUG_INFO_DBG_ADDR_INDEX)
T2F68 000:145.381   Value=0xE000EDF0
T2F68 000:145.388 - 0.013ms returns 0
T2F68 000:145.393 JLINK_GetDebugInfo(0x01 = Unknown)
T2F68 000:145.398   Value=0x00000001
T2F68 000:145.404 - 0.013ms returns 0
T2F68 000:145.409 JLINK_ReadMemU32(0xE000ED00, 0x1 Items)
T2F68 000:145.419   CPU_ReadMem(4 bytes @ 0xE000ED00)
T2F68 000:145.730   Data:  41 C2 0F 41
T2F68 000:145.739   Debug reg: CPUID
T2F68 000:145.745 - 0.337ms returns 1 (0x1)
T2F68 000:145.752 JLINK_GetDebugInfo(0x10F = JLINKARM_DEBUG_INFO_HAS_CORTEX_M_SECURITY_EXT_INDEX)
T2F68 000:145.757   Value=0x00000000
T2F68 000:145.763 - 0.013ms returns 0
T2F68 000:145.769 JLINK_HasError()
T2F68 000:145.775 JLINK_SetResetType(JLINKARM_CM3_RESET_TYPE_CORE)
T2F68 000:145.779 - 0.007ms returns JLINKARM_CM3_RESET_TYPE_NORMAL
T2F68 000:145.786 JLINK_Reset()
T2F68 000:145.798   CPU is running
T2F68 000:145.806   CPU_WriteMem(4 bytes @ 0xE000EDF0)
T2F68 000:146.105   CPU is running
T2F68 000:146.114   CPU_WriteMem(4 bytes @ 0xE000EDFC)
T2F68 000:146.417   Reset: Halt core after reset via DEMCR.VC_CORERESET.
T2F68 000:146.560   Reset: Reset device via AIRCR.VECTRESET.
T2F68 000:146.568   CPU is running
T2F68 000:146.576   CPU_WriteMem(4 bytes @ 0xE000ED0C)
T2F68 000:146.853   CPU_ReadMem(4 bytes @ 0xE000EDF0)
T2F68 000:147.136   CPU_ReadMem(4 bytes @ 0xE000EDF0)
T2F68 000:147.410   CPU is running
T2F68 000:147.419   CPU_WriteMem(4 bytes @ 0xE000EDF0)
T2F68 000:147.683   CPU is running
T2F68 000:147.692   CPU_WriteMem(4 bytes @ 0xE000EDFC)
T2F68 000:154.416   CPU_ReadMem(4 bytes @ 0xE000EDF0)
T2F68 000:159.083   CPU_WriteMem(4 bytes @ 0xE0002000)
T2F68 000:159.521   CPU_ReadMem(4 bytes @ 0xE000EDFC)
T2F68 000:159.941   CPU_ReadMem(4 bytes @ 0xE0001000)
T2F68 000:160.380 - 14.603ms
T2F68 000:160.406 JLINK_HasError()
T2F68 000:160.414 JLINK_ReadReg(R15 (PC))
T2F68 000:160.426 - 0.014ms returns 0x000001F8
T2F68 000:160.486 JLINK_ReadReg(XPSR)
T2F68 000:160.502 - 0.018ms returns 0x01000000
T2F68 000:160.510 JLINK_Halt()
T2F68 000:160.516 - 0.008ms returns 0x00
T2F68 000:160.523 JLINK_ReadMemU32(0xE000EDF0, 0x1 Items)
T2F68 000:160.533   CPU_ReadMem(4 bytes @ 0xE000EDF0)
T2F68 000:161.295   Data:  03 00 03 00
T2F68 000:161.310   Debug reg: DHCSR
T2F68 000:161.318 - 0.798ms returns 1 (0x1)
T2F68 000:161.326 JLINK_WriteU32_64(0xE000EDF0, 0xA05F0003)
T2F68 000:161.336   Debug reg: DHCSR
T2F68 000:161.606   CPU_WriteMem(4 bytes @ 0xE000EDF0)
T2F68 000:162.013 - 0.695ms returns 0 (0x00000000)
T2F68 000:162.028 JLINK_WriteU32_64(0xE000EDFC, 0x01000000)
T2F68 000:162.035   Debug reg: DEMCR
T2F68 000:162.050   CPU_WriteMem(4 bytes @ 0xE000EDFC)
T2F68 000:162.440 - 0.420ms returns 0 (0x00000000)
T2F68 000:162.482 JLINK_GetHWStatus(...)
T2F68 000:162.637 - 0.164ms returns 0
T2F68 000:162.669 JLINK_GetNumBPUnits(Type = 0xFFFFFF00)
T2F68 000:162.676 - 0.010ms returns 0x06
T2F68 000:162.683 JLINK_GetNumBPUnits(Type = 0xF0)
T2F68 000:162.689 - 0.008ms returns 0x2000
T2F68 000:162.695 JLINK_GetNumWPUnits()
T2F68 000:162.700 - 0.008ms returns 4
T2F68 000:162.715 JLINK_GetSpeed()
T2F68 000:162.721 - 0.008ms returns 2000
T2F68 000:162.732 JLINK_ReadMemU32(0xE000E004, 0x1 Items)
T2F68 000:162.744   CPU_ReadMem(4 bytes @ 0xE000E004)
T2F68 000:163.159   Data:  01 00 00 00
T2F68 000:163.169 - 0.439ms returns 1 (0x1)
T2F68 000:163.177 JLINK_ReadMemU32(0xE000E004, 0x1 Items)
T2F68 000:163.186   CPU_ReadMem(4 bytes @ 0xE000E004)
T2F68 000:163.612   Data:  01 00 00 00
T2F68 000:163.623 - 0.448ms returns 1 (0x1)
T2F68 000:163.630 JLINK_WriteMemEx(0xE0001000, 0x0000001C Bytes, Flags = 0x02000004)
T2F68 000:163.637   Data:  01 00 00 00 00 00 00 00 00 00 00 00 00 00 00 00 ...
T2F68 000:163.664   CPU_WriteMem(28 bytes @ 0xE0001000)
T2F68 000:164.603 - 0.978ms returns 0x1C
T2F68 000:164.625 JLINK_HasError()
T2F68 000:164.633 JLINK_ReadReg(R15 (PC))
T2F68 000:164.641 - 0.010ms returns 0x000001F8
T2F68 000:164.648 JLINK_ReadReg(XPSR)
T2F68 000:164.655 - 0.009ms returns 0x01000000
T2F68 000:167.677 JLINK_ReadMemEx(0xE0001004, 0x4 Bytes, Flags = 0x02000000)
T2F68 000:167.696   Data:  00 00 00 00
T2F68 000:167.706   Debug reg: DWT_CYCCNT
T2F68 000:167.715 - 0.040ms returns 4 (0x4)
T2F68 000:249.409 JLINK_HasError()
T2F68 000:249.432 JLINK_SetResetType(JLINKARM_CM3_RESET_TYPE_CORE)
T2F68 000:249.437 - 0.007ms returns JLINKARM_CM3_RESET_TYPE_CORE
T2F68 000:249.443 JLINK_Reset()
T2F68 000:249.458   CPU_WriteMem(4 bytes @ 0xE000EDF0)
T2F68 000:249.788   CPU_WriteMem(4 bytes @ 0xE000EDFC)
T2F68 000:250.139   Reset: Halt core after reset via DEMCR.VC_CORERESET.
T2F68 000:250.757   Reset: Reset device via AIRCR.VECTRESET.
T2F68 000:250.766   CPU_WriteMem(4 bytes @ 0xE000ED0C)
T2F68 000:251.083   CPU_ReadMem(4 bytes @ 0xE000EDF0)
T2F68 000:251.415   CPU_ReadMem(4 bytes @ 0xE000EDF0)
T2F68 000:251.731   CPU_WriteMem(4 bytes @ 0xE000EDF0)
T2F68 000:252.054   CPU_WriteMem(4 bytes @ 0xE000EDFC)
T2F68 000:257.475   CPU_ReadMem(4 bytes @ 0xE000EDF0)
T2F68 000:262.745   CPU_WriteMem(4 bytes @ 0xE0002000)
T2F68 000:263.679   CPU_ReadMem(4 bytes @ 0xE000EDFC)
T2F68 000:264.330   CPU_ReadMem(4 bytes @ 0xE0001000)
T2F68 000:264.910 - 15.502ms
T2F68 000:265.102 JLINK_HasError()
T2F68 000:265.137 JLINK_ReadReg(R15 (PC))
T2F68 000:265.172 - 0.046ms returns 0x000001F8
T2F68 000:265.210 JLINK_ReadReg(XPSR)
T2F68 000:265.244 - 0.045ms returns 0x01000000
T2F68 000:266.872 JLINK_ReadMemEx(0x000001F4, 0x3C Bytes, Flags = 0x02000000)
T2F68 000:266.887   CPU_ReadMem(128 bytes @ 0x000001C0)
T2F68 000:268.239    -- Updating C cache (128 bytes @ 0x000001C0)
T2F68 000:268.270    -- Read from C cache (60 bytes @ 0x000001F4)
T2F68 000:268.278   Data:  01 F0 A6 FC 09 48 80 47 09 48 00 47 FE E7 FE E7 ...
T2F68 000:268.284 - 1.414ms returns 60 (0x3C)
T2F68 000:268.291 JLINK_ReadMemEx(0x000001F4, 0x2 Bytes, Flags = 0x02000000)
T2F68 000:268.297    -- Read from C cache (2 bytes @ 0x000001F4)
T2F68 000:268.304   Data:  01 F0
T2F68 000:268.310 - 0.021ms returns 2 (0x2)
T2F68 000:268.316 JLINK_ReadMemEx(0x000001F6, 0x2 Bytes, Flags = 0x02000000)
T2F68 000:268.322    -- Read from C cache (2 bytes @ 0x000001F6)
T2F68 000:268.328   Data:  A6 FC
T2F68 000:268.334 - 0.020ms returns 2 (0x2)
T2F68 000:268.347 JLINK_ReadMemEx(0x000001F2, 0x2 Bytes, Flags = 0x02000000)
T2F68 000:268.353    -- Read from C cache (2 bytes @ 0x000001F2)
T2F68 000:268.359   Data:  03 BC
T2F68 000:268.365 - 0.020ms returns 2 (0x2)
T2F68 000:268.371 JLINK_ReadMemEx(0x000001F4, 0x3C Bytes, Flags = 0x02000000)
T2F68 000:268.376    -- Read from C cache (60 bytes @ 0x000001F4)
T2F68 000:268.384   Data:  01 F0 A6 FC 09 48 80 47 09 48 00 47 FE E7 FE E7 ...
T2F68 000:268.390 - 0.021ms returns 60 (0x3C)
T2F68 000:268.395 JLINK_ReadMemEx(0x000001F4, 0x2 Bytes, Flags = 0x02000000)
T2F68 000:268.400    -- Read from C cache (2 bytes @ 0x000001F4)
T2F68 000:268.406   Data:  01 F0
T2F68 000:268.413 - 0.019ms returns 2 (0x2)
T2F68 000:268.423 JLINK_ReadMemEx(0x000001EE, 0x2 Bytes, Flags = 0x02000000)
T2F68 000:268.428    -- Read from C cache (2 bytes @ 0x000001EE)
T2F68 000:268.434   Data:  FF F7
T2F68 000:268.440 - 0.020ms returns 2 (0x2)
T2F68 000:268.446 JLINK_ReadMemEx(0x000001F0, 0x3C Bytes, Flags = 0x02000000)
T2F68 000:268.451    -- Read from C cache (60 bytes @ 0x000001F0)
T2F68 000:268.458   Data:  F0 FF 03 BC 01 F0 A6 FC 09 48 80 47 09 48 00 47 ...
T2F68 000:268.464 - 0.020ms returns 60 (0x3C)
T2F68 000:268.469 JLINK_ReadMemEx(0x000001F0, 0x2 Bytes, Flags = 0x02000000)
T2F68 000:268.474    -- Read from C cache (2 bytes @ 0x000001F0)
T2F68 000:268.480   Data:  F0 FF
T2F68 000:268.487 - 0.019ms returns 2 (0x2)
T2F68 000:268.495 JLINK_ReadMemEx(0x000001EA, 0x2 Bytes, Flags = 0x02000000)
T2F68 000:268.500    -- Read from C cache (2 bytes @ 0x000001EA)
T2F68 000:268.506   Data:  84 FC
T2F68 000:268.513 - 0.020ms returns 2 (0x2)
T2F68 000:268.518 JLINK_ReadMemEx(0x000001EC, 0x3C Bytes, Flags = 0x02000000)
T2F68 000:268.523    -- Read from C cache (60 bytes @ 0x000001EC)
T2F68 000:268.530   Data:  03 B4 FF F7 F0 FF 03 BC 01 F0 A6 FC 09 48 80 47 ...
T2F68 000:268.536 - 0.020ms returns 60 (0x3C)
T2F68 000:268.541 JLINK_ReadMemEx(0x000001EC, 0x2 Bytes, Flags = 0x02000000)
T2F68 000:268.546    -- Read from C cache (2 bytes @ 0x000001EC)
T2F68 000:268.553   Data:  03 B4
T2F68 000:268.559 - 0.019ms returns 2 (0x2)
T2F68 000:268.601 JLINK_ReadMemEx(0x000001F8, 0x3C Bytes, Flags = 0x02000000)
T2F68 000:268.607    -- Read from C cache (60 bytes @ 0x000001F8)
T2F68 000:268.614   Data:  09 48 80 47 09 48 00 47 FE E7 FE E7 FE E7 FE E7 ...
T2F68 000:268.620 - 0.021ms returns 60 (0x3C)
T2F68 000:268.626 JLINK_ReadMemEx(0x000001F8, 0x2 Bytes, Flags = 0x02000000)
T2F68 000:268.631    -- Read from C cache (2 bytes @ 0x000001F8)
T2F68 000:268.637   Data:  09 48
T2F68 000:268.643 - 0.019ms returns 2 (0x2)
T2F68 000:268.648 JLINK_ReadMemEx(0x000001FA, 0x2 Bytes, Flags = 0x02000000)
T2F68 000:268.653    -- Read from C cache (2 bytes @ 0x000001FA)
T2F68 000:268.660   Data:  80 47
T2F68 000:268.666 - 0.019ms returns 2 (0x2)
T2F68 000:268.674 JLINK_ReadMemEx(0x000001FA, 0x2 Bytes, Flags = 0x02000000)
T2F68 000:268.680    -- Read from C cache (2 bytes @ 0x000001FA)
T2F68 000:268.686   Data:  80 47
T2F68 000:268.692 - 0.020ms returns 2 (0x2)
T2F68 000:268.697 JLINK_ReadMemEx(0x000001FC, 0x3C Bytes, Flags = 0x02000000)
T2F68 000:268.738    -- Read from C cache (60 bytes @ 0x000001FC)
T2F68 000:268.747   Data:  09 48 00 47 FE E7 FE E7 FE E7 FE E7 FE E7 FE E7 ...
T2F68 000:268.753 - 0.058ms returns 60 (0x3C)
T2F68 000:268.759 JLINK_ReadMemEx(0x000001FC, 0x2 Bytes, Flags = 0x02000000)
T2F68 000:268.764    -- Read from C cache (2 bytes @ 0x000001FC)
T2F68 000:268.770   Data:  09 48
T2F68 000:268.777 - 0.019ms returns 2 (0x2)
T2F68 000:268.785 JLINK_ReadMemEx(0x000001FC, 0x3C Bytes, Flags = 0x02000000)
T2F68 000:268.791    -- Read from C cache (60 bytes @ 0x000001FC)
T2F68 000:268.798   Data:  09 48 00 47 FE E7 FE E7 FE E7 FE E7 FE E7 FE E7 ...
T2F68 000:268.804 - 0.020ms returns 60 (0x3C)
T2F68 000:268.809 JLINK_ReadMemEx(0x000001FC, 0x2 Bytes, Flags = 0x02000000)
T2F68 000:268.814    -- Read from C cache (2 bytes @ 0x000001FC)
T2F68 000:268.821   Data:  09 48
T2F68 000:268.827 - 0.019ms returns 2 (0x2)
T2F68 000:268.832 JLINK_ReadMemEx(0x000001FE, 0x2 Bytes, Flags = 0x02000000)
T2F68 000:268.837    -- Read from C cache (2 bytes @ 0x000001FE)
T2F68 000:268.843   Data:  00 47
T2F68 000:268.849 - 0.019ms returns 2 (0x2)
T2F68 000:393.308 JLINK_ReadMemEx(0x40087000, 0xC Bytes, Flags = 0x02000004)
T2F68 000:393.340   CPU_ReadMem(12 bytes @ 0x40087000)
T2F68 000:393.734   Data:  00 00 30 00 80 00 00 00 00 80 00 00
T2F68 000:393.743 - 0.437ms returns 12 (0xC)
T2F68 000:393.751 JLINK_ReadMemEx(0x4008700C, 0x4 Bytes, Flags = 0x02000004)
T2F68 000:393.759   CPU_ReadMem(4 bytes @ 0x4008700C)
T2F68 000:394.059   Data:  00 80 00 00
T2F68 000:394.067 - 0.318ms returns 4 (0x4)
T2F68 000:394.074 JLINK_ReadMemEx(0x40087014, 0x14 Bytes, Flags = 0x02000004)
T2F68 000:394.082   CPU_ReadMem(20 bytes @ 0x40087014)
T2F68 000:394.858   Data:  FE 70 02 00 00 13 00 00 60 00 D1 81 00 00 00 00 ...
T2F68 000:394.871 - 0.799ms returns 20 (0x14)
T2F68 000:394.880 JLINK_ReadMemEx(0x40087028, 0x4 Bytes, Flags = 0x02000004)
T2F68 000:394.890   CPU_ReadMem(4 bytes @ 0x40087028)
T2F68 000:395.228   Data:  00 00 00 00
T2F68 000:395.237 - 0.359ms returns 4 (0x4)
T2F68 000:395.244 JLINK_ReadMemEx(0x40087030, 0x4 Bytes, Flags = 0x02000004)
T2F68 000:395.253   CPU_ReadMem(4 bytes @ 0x40087030)
T2F68 000:395.583   Data:  00 00 00 00
T2F68 000:395.594 - 0.352ms returns 4 (0x4)
T2F68 000:395.602 JLINK_ReadMemEx(0x4008703C, 0x4 Bytes, Flags = 0x02000004)
T2F68 000:395.611   CPU_ReadMem(4 bytes @ 0x4008703C)
T2F68 000:395.933   Data:  00 00 00 00
T2F68 000:395.941 - 0.341ms returns 4 (0x4)
T2F68 000:395.948 JLINK_ReadMemEx(0x40087048, 0x30 Bytes, Flags = 0x02000004)
T2F68 000:395.956   CPU_ReadMem(48 bytes @ 0x40087048)
T2F68 000:396.628   Data:  3E 38 00 00 BC 25 00 00 43 65 A8 0C 10 32 54 06 ...
T2F68 000:396.636 - 0.689ms returns 48 (0x30)
T2F68 000:396.643 JLINK_ReadMemEx(0x40087078, 0x4 Bytes, Flags = 0x02000004)
T2F68 000:396.650   CPU_ReadMem(4 bytes @ 0x40087078)
T2F68 000:397.002   Data:  80 84 6D 00
T2F68 000:397.014 - 0.374ms returns 4 (0x4)
T2F68 000:428.766 JLINK_ReadMemEx(0x40081000, 0x14 Bytes, Flags = 0x02000004)
T2F68 000:428.800   CPU_ReadMem(20 bytes @ 0x40081000)
T2F68 000:429.292   Data:  02 00 00 00 DA 15 00 00 00 00 00 00 00 00 00 00 ...
T2F68 000:429.303 - 0.539ms returns 20 (0x14)
T2F68 000:429.312 JLINK_ReadMemEx(0x40081014, 0x4 Bytes, Flags = 0x02000004)
T2F68 000:429.321   CPU_ReadMem(4 bytes @ 0x40081014)
T2F68 000:430.062   Data:  00 00 00 00
T2F68 000:430.095 - 0.785ms returns 4 (0x4)
T2F68 000:430.102 JLINK_ReadMemEx(0x40081020, 0x4 Bytes, Flags = 0x02000004)
T2F68 000:430.110   CPU_ReadMem(4 bytes @ 0x40081020)
T2F68 000:430.436   Data:  00 00 00 00
T2F68 000:430.445 - 0.344ms returns 4 (0x4)
T2F68 000:430.452 JLINK_ReadMemEx(0x40081024, 0x4 Bytes, Flags = 0x02000004)
T2F68 000:430.459   CPU_ReadMem(4 bytes @ 0x40081024)
T2F68 000:430.785   Data:  20 20 00 00
T2F68 000:430.794 - 0.344ms returns 4 (0x4)
T2F68 000:430.800 JLINK_ReadMemEx(0x40081030, 0x14 Bytes, Flags = 0x02000004)
T2F68 000:430.808   CPU_ReadMem(20 bytes @ 0x40081030)
T2F68 000:431.253   Data:  02 00 00 00 DA 13 00 00 00 00 00 00 00 00 00 00 ...
T2F68 000:431.304 - 0.506ms returns 20 (0x14)
T2F68 000:431.312 JLINK_ReadMemEx(0x40081044, 0x4 Bytes, Flags = 0x02000004)
T2F68 000:431.320   CPU_ReadMem(4 bytes @ 0x40081044)
T2F68 000:431.661   Data:  00 00 00 00
T2F68 000:431.669 - 0.359ms returns 4 (0x4)
T2F68 000:431.676 JLINK_ReadMemEx(0x40081050, 0x4 Bytes, Flags = 0x02000004)
T2F68 000:431.683   CPU_ReadMem(4 bytes @ 0x40081050)
T2F68 000:432.001   Data:  00 00 00 00
T2F68 000:432.009 - 0.335ms returns 4 (0x4)
T2F68 000:432.016 JLINK_ReadMemEx(0x40081054, 0x4 Bytes, Flags = 0x02000004)
T2F68 000:432.023   CPU_ReadMem(4 bytes @ 0x40081054)
T2F68 000:432.352   Data:  AF 00 00 00
T2F68 000:432.360 - 0.347ms returns 4 (0x4)
T2F68 000:432.367 JLINK_ReadMemEx(0x40081060, 0x14 Bytes, Flags = 0x02000004)
T2F68 000:432.374   CPU_ReadMem(20 bytes @ 0x40081060)
T2F68 000:433.207   Data:  00 00 00 00 DA 14 00 00 00 00 00 00 00 00 00 00 ...
T2F68 000:433.215 - 0.850ms returns 20 (0x14)
T2F68 000:433.221 JLINK_ReadMemEx(0x40081074, 0x4 Bytes, Flags = 0x02000004)
T2F68 000:433.228   CPU_ReadMem(4 bytes @ 0x40081074)
T2F68 000:433.557   Data:  00 00 00 00
T2F68 000:433.570 - 0.351ms returns 4 (0x4)
T2F68 000:433.579 JLINK_ReadMemEx(0x40081080, 0x4 Bytes, Flags = 0x02000004)
T2F68 000:433.589   CPU_ReadMem(4 bytes @ 0x40081080)
T2F68 000:433.922   Data:  00 00 00 00
T2F68 000:433.931 - 0.354ms returns 4 (0x4)
T2F68 000:433.938 JLINK_ReadMemEx(0x40081084, 0x4 Bytes, Flags = 0x02000004)
T2F68 000:433.946   CPU_ReadMem(4 bytes @ 0x40081084)
T2F68 000:434.267   Data:  3E 00 00 00
T2F68 000:434.275 - 0.339ms returns 4 (0x4)
T2F68 000:434.282 JLINK_ReadMemEx(0x40081090, 0x14 Bytes, Flags = 0x02000004)
T2F68 000:434.289   CPU_ReadMem(20 bytes @ 0x40081090)
T2F68 000:434.759   Data:  00 00 00 00 00 00 00 00 00 00 00 00 00 00 00 00 ...
T2F68 000:434.798 - 0.518ms returns 20 (0x14)
T2F68 000:434.805 JLINK_ReadMemEx(0x400810A4, 0x4 Bytes, Flags = 0x02000004)
T2F68 000:434.812   CPU_ReadMem(4 bytes @ 0x400810A4)
T2F68 000:435.100   Data:  00 00 00 00
T2F68 000:435.110 - 0.307ms returns 4 (0x4)
T2F68 000:435.118 JLINK_ReadMemEx(0x400810B0, 0x4 Bytes, Flags = 0x02000004)
T2F68 000:435.126   CPU_ReadMem(4 bytes @ 0x400810B0)
T2F68 000:435.431   Data:  00 00 00 00
T2F68 000:435.440 - 0.324ms returns 4 (0x4)
T2F68 000:435.446 JLINK_ReadMemEx(0x400810B4, 0x4 Bytes, Flags = 0x02000004)
T2F68 000:435.454   CPU_ReadMem(4 bytes @ 0x400810B4)
T2F68 000:435.760   Data:  00 00 00 00
T2F68 000:435.769 - 0.324ms returns 4 (0x4)
T2F68 000:435.775 JLINK_ReadMemEx(0x400810E0, 0xC Bytes, Flags = 0x02000004)
T2F68 000:435.782   CPU_ReadMem(12 bytes @ 0x400810E0)
T2F68 000:436.523   Data:  06 02 02 02 00 00 00 00 00 00 00 00
T2F68 000:436.531 - 0.758ms returns 12 (0xC)
T2F68 000:436.538 JLINK_ReadMemEx(0x400810EC, 0x4 Bytes, Flags = 0x02000004)
T2F68 000:436.545   CPU_ReadMem(4 bytes @ 0x400810EC)
T2F68 000:436.852   Data:  00 00 00 00
T2F68 000:436.861 - 0.324ms returns 4 (0x4)
T2F68 000:467.671 JLINK_ReadMemEx(0x400E4000, 0x4 Bytes, Flags = 0x02000004)
T2F68 000:467.702   CPU_ReadMem(4 bytes @ 0x400E4000)
T2F68 000:468.414   Data:  00 00 31 00
T2F68 000:468.423 - 0.754ms returns 4 (0x4)
T2F68 000:468.431 JLINK_ReadMemEx(0x400E4010, 0x4 Bytes, Flags = 0x02000004)
T2F68 000:468.439   CPU_ReadMem(4 bytes @ 0x400E4010)
T2F68 000:468.781   Data:  46 1F 48 91
T2F68 000:468.788 - 0.360ms returns 4 (0x4)
T2F68 000:468.795 JLINK_ReadMemEx(0x400E4018, 0x4 Bytes, Flags = 0x02000004)
T2F68 000:468.802   CPU_ReadMem(4 bytes @ 0x400E4018)
T2F68 000:469.154   Data:  45 1F 60 B0
T2F68 000:469.162 - 0.368ms returns 4 (0x4)
T2F68 000:469.169 JLINK_ReadMemEx(0x400E4020, 0x1C Bytes, Flags = 0x02000004)
T2F68 000:469.176   CPU_ReadMem(28 bytes @ 0x400E4020)
T2F68 000:469.720   Data:  B3 00 06 B1 10 00 00 00 46 02 00 00 20 00 85 A0 ...
T2F68 000:469.765 - 0.599ms returns 28 (0x1C)
T2F68 000:469.772 JLINK_ReadMemEx(0x400E403C, 0x4 Bytes, Flags = 0x02000004)
T2F68 000:469.779   CPU_ReadMem(4 bytes @ 0x400E403C)
T2F68 000:470.155   Data:  2B 01 02 00
T2F68 000:470.163 - 0.392ms returns 4 (0x4)
T2F68 000:470.170 JLINK_ReadMemEx(0x400E4050, 0x4 Bytes, Flags = 0x02000004)
T2F68 000:470.177   CPU_ReadMem(4 bytes @ 0x400E4050)
T2F68 000:470.495   Data:  00 00 00 00
T2F68 000:470.503 - 0.335ms returns 4 (0x4)
T2F68 000:470.509 JLINK_ReadMemEx(0x400E4054, 0x4 Bytes, Flags = 0x02000004)
T2F68 000:470.516   CPU_ReadMem(4 bytes @ 0x400E4054)
T2F68 000:470.830   Data:  00 00 00 00
T2F68 000:470.838 - 0.330ms returns 4 (0x4)
T2F68 000:470.844 JLINK_ReadMemEx(0x400E4070, 0x4 Bytes, Flags = 0x02000004)
T2F68 000:470.851   CPU_ReadMem(4 bytes @ 0x400E4070)
T2F68 000:471.567   Data:  00 00 00 00
T2F68 000:471.616 - 0.773ms returns 4 (0x4)
T2F68 000:471.622 JLINK_ReadMemEx(0x400E4080, 0x8 Bytes, Flags = 0x02000004)
T2F68 000:471.629   CPU_ReadMem(8 bytes @ 0x400E4080)
T2F68 000:471.954   Data:  01 00 00 00 00 00 00 00
T2F68 000:471.961 - 0.341ms returns 8 (0x8)
T2F68 000:471.968 JLINK_ReadMemEx(0x400E4088, 0x4 Bytes, Flags = 0x02000004)
T2F68 000:471.975   CPU_ReadMem(4 bytes @ 0x400E4088)
T2F68 000:472.261   Data:  00 00 00 00
T2F68 000:472.268 - 0.303ms returns 4 (0x4)
T2F68 000:472.275 JLINK_ReadMemEx(0x400E4090, 0x4 Bytes, Flags = 0x02000004)
T2F68 000:472.282   CPU_ReadMem(4 bytes @ 0x400E4090)
T2F68 000:472.579   Data:  CF 00 11 00
T2F68 000:472.587 - 0.314ms returns 4 (0x4)
T2F68 000:472.593 JLINK_ReadMemEx(0x400E4094, 0x4 Bytes, Flags = 0x02000004)
T2F68 000:472.600   CPU_ReadMem(4 bytes @ 0x400E4094)
T2F68 000:472.885   Data:  02 00 00 00
T2F68 000:472.893 - 0.301ms returns 4 (0x4)
T2F68 000:472.899 JLINK_ReadMemEx(0x400E409C, 0x4 Bytes, Flags = 0x02000004)
T2F68 000:472.906   CPU_ReadMem(4 bytes @ 0x400E409C)
T2F68 000:473.204   Data:  84 03 00 00
T2F68 000:473.212 - 0.315ms returns 4 (0x4)
T2F68 000:473.219 JLINK_ReadMemEx(0x400E40A0, 0x4 Bytes, Flags = 0x02000004)
T2F68 000:473.225   CPU_ReadMem(4 bytes @ 0x400E40A0)
T2F68 000:473.513   Data:  17 18 00 00
T2F68 000:473.521 - 0.304ms returns 4 (0x4)
T2F68 000:473.527 JLINK_ReadMemEx(0x400E40AC, 0x4 Bytes, Flags = 0x02000004)
T2F68 000:473.534   CPU_ReadMem(4 bytes @ 0x400E40AC)
T2F68 000:473.829   Data:  00 00 00 00
T2F68 000:473.837 - 0.311ms returns 4 (0x4)
T2F68 000:473.843 JLINK_ReadMemEx(0x400E40B0, 0x4 Bytes, Flags = 0x02000004)
T2F68 000:473.850   CPU_ReadMem(4 bytes @ 0x400E40B0)
T2F68 000:474.159   Data:  05 00 00 00
T2F68 000:474.166 - 0.325ms returns 4 (0x4)
T2F68 000:474.173 JLINK_ReadMemEx(0x400E40C0, 0x4 Bytes, Flags = 0x02000004)
T2F68 000:474.180   CPU_ReadMem(4 bytes @ 0x400E40C0)
T2F68 000:474.783   Data:  04 01 00 00
T2F68 000:474.791 - 0.620ms returns 4 (0x4)
T2F68 000:474.797 JLINK_ReadMemEx(0x400E40C8, 0x4 Bytes, Flags = 0x02000004)
T2F68 000:474.804   CPU_ReadMem(4 bytes @ 0x400E40C8)
T2F68 000:475.103   Data:  FD 01 00 00
T2F68 000:475.110 - 0.315ms returns 4 (0x4)
T2F68 000:475.117 JLINK_ReadMemEx(0x400E40E0, 0x4 Bytes, Flags = 0x02000004)
T2F68 000:475.124   CPU_ReadMem(4 bytes @ 0x400E40E0)
T2F68 000:475.385   Data:  01 00 00 00
T2F68 000:475.392 - 0.277ms returns 4 (0x4)
T2F68 000:475.399 JLINK_ReadMemEx(0x400E40E8, 0x4 Bytes, Flags = 0x02000004)
T2F68 000:475.406   CPU_ReadMem(4 bytes @ 0x400E40E8)
T2F68 000:475.681   Data:  00 00 00 00
T2F68 000:475.688 - 0.291ms returns 4 (0x4)
T2F68 000:475.695 JLINK_ReadMemEx(0x400E40F0, 0x4 Bytes, Flags = 0x02000004)
T2F68 000:475.702   CPU_ReadMem(4 bytes @ 0x400E40F0)
T2F68 000:475.977   Data:  00 00 00 00
T2F68 000:475.984 - 0.291ms returns 4 (0x4)
T2F68 000:475.991 JLINK_ReadMemEx(0x400E4100, 0x4 Bytes, Flags = 0x02000004)
T2F68 000:475.998   CPU_ReadMem(4 bytes @ 0x400E4100)
T2F68 000:476.260   Data:  00 00 00 01
T2F68 000:476.267 - 0.278ms returns 4 (0x4)
T2F68 000:476.274 JLINK_ReadMemEx(0x400E4108, 0xC Bytes, Flags = 0x02000004)
T2F68 000:476.281   CPU_ReadMem(12 bytes @ 0x400E4108)
T2F68 000:476.643   Data:  00 00 00 00 00 00 00 00 00 00 00 00
T2F68 000:476.651 - 0.379ms returns 12 (0xC)
T2F68 000:476.657 JLINK_ReadMemEx(0x400E4114, 0x4 Bytes, Flags = 0x02000004)
T2F68 000:476.666   CPU_ReadMem(4 bytes @ 0x400E4114)
T2F68 000:476.931   Data:  00 00 00 00
T2F68 000:476.939 - 0.283ms returns 4 (0x4)
T2F68 000:476.945 JLINK_ReadMemEx(0x400E4120, 0x4 Bytes, Flags = 0x02000004)
T2F68 000:476.952   CPU_ReadMem(4 bytes @ 0x400E4120)
T2F68 000:477.227   Data:  00 00 00 00
T2F68 000:477.235 - 0.292ms returns 4 (0x4)
T2F68 000:477.242 JLINK_ReadMemEx(0x400E4128, 0x4 Bytes, Flags = 0x02000004)
T2F68 000:477.249   CPU_ReadMem(4 bytes @ 0x400E4128)
T2F68 000:477.939   Data:  00 00 00 00
T2F68 000:477.975 - 0.753ms returns 4 (0x4)
T2F68 000:477.999 JLINK_ReadMemEx(0x400E4130, 0x4 Bytes, Flags = 0x02000004)
T2F68 000:478.006   CPU_ReadMem(4 bytes @ 0x400E4130)
T2F68 000:478.310   Data:  00 00 00 00
T2F68 000:478.324 - 0.328ms returns 4 (0x4)
T2F68 000:478.333 JLINK_ReadMemEx(0x400E4140, 0x4 Bytes, Flags = 0x02000004)
T2F68 000:478.343   CPU_ReadMem(4 bytes @ 0x400E4140)
T2F68 000:478.661   Data:  00 00 00 10
T2F68 000:478.674 - 0.342ms returns 4 (0x4)
T2F68 000:478.682 JLINK_ReadMemEx(0x400E4144, 0x4 Bytes, Flags = 0x02000004)
T2F68 000:478.691   CPU_ReadMem(4 bytes @ 0x400E4144)
T2F68 000:478.984   Data:  00 00 00 00
T2F68 000:478.997 - 0.317ms returns 4 (0x4)
T2F68 000:479.005 JLINK_ReadMemEx(0x400E4150, 0xC Bytes, Flags = 0x02000004)
T2F68 000:479.015   CPU_ReadMem(12 bytes @ 0x400E4150)
T2F68 000:479.384   Data:  00 00 00 00 20 00 00 00 00 00 00 00
T2F68 000:479.396 - 0.393ms returns 12 (0xC)
T2F68 000:479.404 JLINK_ReadMemEx(0x400E415C, 0x4 Bytes, Flags = 0x02000004)
T2F68 000:479.414   CPU_ReadMem(4 bytes @ 0x400E415C)
T2F68 000:479.711   Data:  10 00 00 00
T2F68 000:479.723 - 0.321ms returns 4 (0x4)
T2F68 000:479.731 JLINK_ReadMemEx(0x400E4170, 0x4 Bytes, Flags = 0x02000004)
T2F68 000:479.741   CPU_ReadMem(4 bytes @ 0x400E4170)
T2F68 000:480.035   Data:  00 00 00 00
T2F68 000:480.047 - 0.318ms returns 4 (0x4)
T2F68 000:480.056 JLINK_ReadMemEx(0x400E4174, 0x4 Bytes, Flags = 0x02000004)
T2F68 000:480.065   CPU_ReadMem(4 bytes @ 0x400E4174)
T2F68 000:480.361   Data:  00 00 00 00
T2F68 000:480.373 - 0.319ms returns 4 (0x4)
T2F68 000:480.381 JLINK_ReadMemEx(0x400E4180, 0x4 Bytes, Flags = 0x02000004)
T2F68 000:480.391   CPU_ReadMem(4 bytes @ 0x400E4180)
T2F68 000:481.160   Data:  00 00 00 00
T2F68 000:481.172 - 0.793ms returns 4 (0x4)
T2F68 000:481.181 JLINK_ReadMemEx(0x400E4188, 0x4 Bytes, Flags = 0x02000004)
T2F68 000:481.190   CPU_ReadMem(4 bytes @ 0x400E4188)
T2F68 000:481.486   Data:  00 00 DC 00
T2F68 000:481.498 - 0.320ms returns 4 (0x4)
T2F68 000:481.507 JLINK_ReadMemEx(0x400E4190, 0x4 Bytes, Flags = 0x02000004)
T2F68 000:481.516   CPU_ReadMem(4 bytes @ 0x400E4190)
T2F68 000:481.816   Data:  FF 3F 00 00
T2F68 000:481.828 - 0.324ms returns 4 (0x4)
T2F68 000:481.837 JLINK_ReadMemEx(0x400E4198, 0x4 Bytes, Flags = 0x02000004)
T2F68 000:481.846   CPU_ReadMem(4 bytes @ 0x400E4198)
T2F68 000:482.167   Data:  FF 7F 00 00
T2F68 000:482.179 - 0.345ms returns 4 (0x4)
T2F68 000:482.187 JLINK_ReadMemEx(0x400E41A4, 0x4 Bytes, Flags = 0x02000004)
T2F68 000:482.197   CPU_ReadMem(4 bytes @ 0x400E41A4)
T2F68 000:482.509   Data:  FF 01 00 00
T2F68 000:482.521 - 0.336ms returns 4 (0x4)
T2F68 000:482.529 JLINK_ReadMemEx(0x400E41B4, 0x4 Bytes, Flags = 0x02000004)
T2F68 000:482.539   CPU_ReadMem(4 bytes @ 0x400E41B4)
T2F68 000:482.840   Data:  01 00 00 00
T2F68 000:482.852 - 0.325ms returns 4 (0x4)
T2F68 000:482.860 JLINK_ReadMemEx(0x400E41BC, 0x4 Bytes, Flags = 0x02000004)
T2F68 000:482.870   CPU_ReadMem(4 bytes @ 0x400E41BC)
T2F68 000:483.190   Data:  01 00 00 00
T2F68 000:483.202 - 0.344ms returns 4 (0x4)
T2F68 000:483.210 JLINK_ReadMemEx(0x400E41C4, 0x4 Bytes, Flags = 0x02000004)
T2F68 000:483.220   CPU_ReadMem(4 bytes @ 0x400E41C4)
T2F68 000:483.542   Data:  01 00 00 00
T2F68 000:483.554 - 0.346ms returns 4 (0x4)
T2F68 000:483.563 JLINK_ReadMemEx(0x400E41CC, 0x18 Bytes, Flags = 0x02000004)
T2F68 000:483.572   CPU_ReadMem(24 bytes @ 0x400E41CC)
T2F68 000:484.488   Data:  01 00 00 00 00 00 00 00 F0 00 00 00 F0 00 00 00 ...
T2F68 000:484.504 - 0.944ms returns 24 (0x18)
T2F68 000:484.513 JLINK_ReadMemEx(0x400E41E4, 0x4 Bytes, Flags = 0x02000004)
T2F68 000:484.522   CPU_ReadMem(4 bytes @ 0x400E41E4)
T2F68 000:484.813   Data:  01 00 00 00
T2F68 000:484.825 - 0.315ms returns 4 (0x4)
T2F68 000:515.788 JLINK_ReadMemEx(0x40080000, 0x20 Bytes, Flags = 0x02000004)
T2F68 000:515.823   CPU_ReadMem(32 bytes @ 0x40080000)
T2F68 000:516.675   Data:  00 00 00 00 00 00 00 00 00 00 00 00 00 00 00 00 ...
T2F68 000:516.699 - 0.913ms returns 32 (0x20)
T2F68 000:516.708 JLINK_ReadMemEx(0x40080020, 0x4 Bytes, Flags = 0x02000004)
T2F68 000:516.716   CPU_ReadMem(4 bytes @ 0x40080020)
T2F68 000:517.035   Data:  00 00 00 00
T2F68 000:517.043 - 0.337ms returns 4 (0x4)
T2F68 000:517.050 JLINK_ReadMemEx(0x40080028, 0x38 Bytes, Flags = 0x02000004)
T2F68 000:517.057   CPU_ReadMem(56 bytes @ 0x40080028)
T2F68 000:517.854   Data:  00 00 00 00 08 01 00 00 FF FF 00 00 01 00 00 00 ...
T2F68 000:517.887 - 0.839ms returns 56 (0x38)
T2F68 000:517.895 JLINK_ReadMemEx(0x40080060, 0x4 Bytes, Flags = 0x02000004)
T2F68 000:517.902   CPU_ReadMem(4 bytes @ 0x40080060)
T2F68 000:518.266   Data:  00 00 00 00
T2F68 000:518.273 - 0.380ms returns 4 (0x4)
T2F68 000:518.281 JLINK_ReadMemEx(0x4008006C, 0x40 Bytes, Flags = 0x02000004)
T2F68 000:518.288   CPU_ReadMem(64 bytes @ 0x4008006C)
T2F68 000:519.482   Data:  00 00 00 00 00 00 00 00 00 00 00 00 00 00 00 00 ...
T2F68 000:519.489 - 1.210ms returns 64 (0x40)
T2F68 000:519.496 JLINK_ReadMemEx(0x400800AC, 0x4 Bytes, Flags = 0x02000004)
T2F68 000:519.503   CPU_ReadMem(4 bytes @ 0x400800AC)
T2F68 000:519.835   Data:  00 00 00 00
T2F68 000:519.842 - 0.348ms returns 4 (0x4)
T2F68 000:519.849 JLINK_ReadMemEx(0x400800C0, 0x3C Bytes, Flags = 0x02000004)
T2F68 000:519.856   CPU_ReadMem(60 bytes @ 0x400800C0)
T2F68 000:520.639   Data:  00 00 00 00 00 00 00 00 00 00 00 00 00 00 00 00 ...
T2F68 000:520.677 - 0.829ms returns 60 (0x3C)
T2F68 000:520.684 JLINK_ReadMemEx(0x400800FC, 0x4 Bytes, Flags = 0x02000004)
T2F68 000:520.691   CPU_ReadMem(4 bytes @ 0x400800FC)
T2F68 000:521.028   Data:  00 00 00 00
T2F68 000:521.036 - 0.354ms returns 4 (0x4)
T2F68 000:551.915 JLINK_ReadMemEx(0x40086000, 0x78 Bytes, Flags = 0x02000004)
T2F68 000:551.949   CPU_ReadMem(120 bytes @ 0x40086000)
T2F68 000:553.224   Data:  40 00 00 00 FD 00 0E 1F 00 00 FF BF 00 00 00 00 ...
T2F68 000:553.267 - 1.369ms returns 120 (0x78)
T2F68 000:553.291 JLINK_ReadMemEx(0x40086078, 0x4 Bytes, Flags = 0x02000004)
T2F68 000:553.300   CPU_ReadMem(4 bytes @ 0x40086078)
T2F68 000:553.660   Data:  00 00 00 00
T2F68 000:553.668 - 0.379ms returns 4 (0x4)
T2F68 000:553.675 JLINK_ReadMemEx(0x40086080, 0x4 Bytes, Flags = 0x02000004)
T2F68 000:553.682   CPU_ReadMem(4 bytes @ 0x40086080)
T2F68 000:554.036   Data:  00 00 00 00
T2F68 000:554.044 - 0.370ms returns 4 (0x4)
T2F68 000:554.050 JLINK_ReadMemEx(0x4008608C, 0x4 Bytes, Flags = 0x02000004)
T2F68 000:554.057   CPU_ReadMem(4 bytes @ 0x4008608C)
T2F68 000:554.839   Data:  00 00 00 00
T2F68 000:554.871 - 0.822ms returns 4 (0x4)
T2F68 000:554.877 JLINK_ReadMemEx(0x40086098, 0x4 Bytes, Flags = 0x02000004)
T2F68 000:554.884   CPU_ReadMem(4 bytes @ 0x40086098)
T2F68 000:555.229   Data:  33 00 00 00
T2F68 000:555.237 - 0.362ms returns 4 (0x4)
T2F68 000:555.244 JLINK_ReadMemEx(0x4008609C, 0x4 Bytes, Flags = 0x02000004)
T2F68 000:555.251   CPU_ReadMem(4 bytes @ 0x4008609C)
T2F68 000:555.585   Data:  00 00 00 00
T2F68 000:555.593 - 0.351ms returns 4 (0x4)
T2F68 000:555.599 JLINK_ReadMemEx(0x40086100, 0x4 Bytes, Flags = 0x02000004)
T2F68 000:555.606   CPU_ReadMem(4 bytes @ 0x40086100)
T2F68 000:555.927   Data:  00 00 00 00
T2F68 000:555.935 - 0.337ms returns 4 (0x4)
T2F68 000:555.942 JLINK_ReadMemEx(0x40086400, 0x3FC Bytes, Flags = 0x02000004)
T2F68 000:555.949   CPU_ReadMem(1020 bytes @ 0x40086400)
T2F68 000:565.241   Data:  7A 00 00 00 7A 00 00 00 7A 00 00 00 7A 00 00 00 ...
T2F68 000:565.268 - 9.332ms returns 1020 (0x3FC)
T2F68 000:565.291 JLINK_ReadMemEx(0x400867FC, 0x4 Bytes, Flags = 0x02000004)
T2F68 000:565.318   CPU_ReadMem(4 bytes @ 0x400867FC)
T2F68 000:565.732   Data:  7A 00 00 00
T2F68 000:565.752 - 0.467ms returns 4 (0x4)
T2F68 000:605.599 JLINK_ReadMemEx(0x40085000, 0x4 Bytes, Flags = 0x02000004)
T2F68 000:605.635   CPU_ReadMem(4 bytes @ 0x40085000)
T2F68 000:606.010   Data:  00 11 01 00
T2F68 000:606.019 - 0.422ms returns 4 (0x4)
T2F68 000:606.027 JLINK_ReadMemEx(0x40085008, 0xB8 Bytes, Flags = 0x02000004)
T2F68 000:606.035   CPU_ReadMem(184 bytes @ 0x40085008)
T2F68 000:607.718   Data:  00 00 00 00 00 00 00 00 01 00 00 00 92 85 00 00 ...
T2F68 000:607.726 - 1.701ms returns 184 (0xB8)
T2F68 000:607.733 JLINK_ReadMemEx(0x400850C0, 0x4 Bytes, Flags = 0x02000004)
T2F68 000:607.740   CPU_ReadMem(4 bytes @ 0x400850C0)
T2F68 000:608.087   Data:  00 00 00 00
T2F68 000:608.095 - 0.363ms returns 4 (0x4)
T2F68 000:640.665 JLINK_ReadMemEx(0x40084000, 0x4 Bytes, Flags = 0x02000004)
T2F68 000:640.700   CPU_ReadMem(4 bytes @ 0x40084000)
T2F68 000:641.248   Data:  00 00 00 00
T2F68 000:641.280 - 0.617ms returns 4 (0x4)
T2F68 000:641.289 JLINK_ReadMemEx(0x40084004, 0x4 Bytes, Flags = 0x02000004)
T2F68 000:641.299   CPU_ReadMem(4 bytes @ 0x40084004)
T2F68 000:641.638   Data:  00 00 00 00
T2F68 000:641.646 - 0.359ms returns 4 (0x4)
T2F68 000:641.653 JLINK_ReadMemEx(0x4008400C, 0x8 Bytes, Flags = 0x02000004)
T2F68 000:641.661   CPU_ReadMem(8 bytes @ 0x4008400C)
T2F68 000:642.041   Data:  00 00 00 00 00 00 00 00
T2F68 000:642.048 - 0.397ms returns 8 (0x8)
T2F68 000:642.055 JLINK_ReadMemEx(0x40084014, 0x4 Bytes, Flags = 0x02000004)
T2F68 000:642.062   CPU_ReadMem(4 bytes @ 0x40084014)
T2F68 000:642.416   Data:  00 00 00 00
T2F68 000:642.423 - 0.370ms returns 4 (0x4)
T2F68 000:642.430 JLINK_ReadMemEx(0x40084020, 0x1C Bytes, Flags = 0x02000004)
T2F68 000:642.437   CPU_ReadMem(28 bytes @ 0x40084020)
T2F68 000:642.972   Data:  00 00 00 00 0C 00 00 00 BC 00 00 00 00 00 00 00 ...
T2F68 000:642.980 - 0.552ms returns 28 (0x1C)
T2F68 000:642.987 JLINK_ReadMemEx(0x4008403C, 0x4 Bytes, Flags = 0x02000004)
T2F68 000:642.994   CPU_ReadMem(4 bytes @ 0x4008403C)
T2F68 000:643.331   Data:  10 00 00 00
T2F68 000:643.338 - 0.353ms returns 4 (0x4)
T2F68 000:643.345 JLINK_ReadMemEx(0x40084044, 0x20 Bytes, Flags = 0x02000004)
T2F68 000:643.352   CPU_ReadMem(32 bytes @ 0x40084044)
T2F68 000:644.285   Data:  00 00 00 00 00 00 00 00 00 00 00 00 00 00 00 00 ...
T2F68 000:644.332 - 0.989ms returns 32 (0x20)
T2F68 000:644.339 JLINK_ReadMemEx(0x40084064, 0x4 Bytes, Flags = 0x02000004)
T2F68 000:644.346   CPU_ReadMem(4 bytes @ 0x40084064)
T2F68 000:644.635   Data:  00 00 00 00
T2F68 000:644.643 - 0.306ms returns 4 (0x4)
T2F68 000:644.649 JLINK_ReadMemEx(0x4008406C, 0x38 Bytes, Flags = 0x02000004)
T2F68 000:644.656   CPU_ReadMem(56 bytes @ 0x4008406C)
T2F68 000:645.353   Data:  00 00 00 00 00 00 00 00 00 00 00 00 00 00 00 00 ...
T2F68 000:645.364 - 0.717ms returns 56 (0x38)
T2F68 000:645.372 JLINK_ReadMemEx(0x400840A4, 0x4 Bytes, Flags = 0x02000004)
T2F68 000:645.381   CPU_ReadMem(4 bytes @ 0x400840A4)
T2F68 000:645.660   Data:  FF FD 01 00
T2F68 000:645.668 - 0.298ms returns 4 (0x4)
T2F68 000:645.675 JLINK_ReadMemEx(0x400840B0, 0x14 Bytes, Flags = 0x02000004)
T2F68 000:645.683   CPU_ReadMem(20 bytes @ 0x400840B0)
T2F68 000:646.112   Data:  2E 00 00 00 24 00 00 00 0B C8 03 00 00 00 00 00 ...
T2F68 000:646.148 - 0.492ms returns 20 (0x14)
T2F68 000:646.171 JLINK_ReadMemEx(0x400840C4, 0x4 Bytes, Flags = 0x02000004)
T2F68 000:646.178   CPU_ReadMem(4 bytes @ 0x400840C4)
T2F68 000:646.454   Data:  00 00 00 00
T2F68 000:646.462 - 0.292ms returns 4 (0x4)
T2F68 000:646.469 JLINK_ReadMemEx(0x400840F4, 0x68 Bytes, Flags = 0x02000004)
T2F68 000:646.476   CPU_ReadMem(104 bytes @ 0x400840F4)
T2F68 000:647.923   Data:  20 10 00 00 00 00 00 00 00 00 00 00 0C 00 00 00 ...
T2F68 000:647.970 - 1.503ms returns 104 (0x68)
T2F68 000:647.977 JLINK_ReadMemEx(0x4008415C, 0x4 Bytes, Flags = 0x02000004)
T2F68 000:647.984   CPU_ReadMem(4 bytes @ 0x4008415C)
T2F68 000:648.278   Data:  00 00 00 00
T2F68 000:648.291 - 0.316ms returns 4 (0x4)
T2F68 000:678.792 JLINK_ReadMemEx(0x21000F00, 0xFC Bytes, Flags = 0x02000004)
T2F68 000:678.827   CPU_ReadMem(252 bytes @ 0x21000F00)
T2F68 000:681.531   Data:  01 01 01 01 04 00 00 00 00 00 00 00 00 00 00 00 ...
T2F68 000:681.544 - 2.754ms returns 252 (0xFC)
T2F68 000:681.554 JLINK_ReadMemEx(0x21000FFC, 0x4 Bytes, Flags = 0x02000004)
T2F68 000:681.565   CPU_ReadMem(4 bytes @ 0x21000FFC)
T2F68 000:681.860   Data:  02 C0 03 00
T2F68 000:681.873 - 0.321ms returns 4 (0x4)
T2F68 000:713.023 JLINK_ReadMemEx(0x40083000, 0x4 Bytes, Flags = 0x02000004)
T2F68 000:713.056   CPU_ReadMem(4 bytes @ 0x40083000)
T2F68 000:713.356   Data:  04 00 1E 01
T2F68 000:713.370 - 0.349ms returns 4 (0x4)
T2F68 000:713.379 JLINK_ReadMemEx(0x40083008, 0x4 Bytes, Flags = 0x02000004)
T2F68 000:713.389   CPU_ReadMem(4 bytes @ 0x40083008)
T2F68 000:713.682   Data:  3F AC 00 00
T2F68 000:713.690 - 0.313ms returns 4 (0x4)
T2F68 000:713.697 JLINK_ReadMemEx(0x4008300C, 0x4 Bytes, Flags = 0x02000004)
T2F68 000:713.705   CPU_ReadMem(4 bytes @ 0x4008300C)
T2F68 000:714.010   Data:  01 28 04 00
T2F68 000:714.018 - 0.323ms returns 4 (0x4)
T2F68 000:714.024 JLINK_ReadMemEx(0x40083024, 0x4 Bytes, Flags = 0x02000004)
T2F68 000:714.032   CPU_ReadMem(4 bytes @ 0x40083024)
T2F68 000:714.758   Data:  20 00 00 00
T2F68 000:714.794 - 0.786ms returns 4 (0x4)
T2F68 000:714.816 JLINK_ReadMemEx(0x4008302C, 0x18 Bytes, Flags = 0x02000004)
T2F68 000:714.823   CPU_ReadMem(24 bytes @ 0x4008302C)
T2F68 000:715.316   Data:  00 80 1E 02 00 40 10 00 03 00 00 00 00 00 00 00 ...
T2F68 000:715.351 - 0.537ms returns 24 (0x18)
T2F68 000:715.358 JLINK_ReadMemEx(0x40083044, 0x4 Bytes, Flags = 0x02000004)
T2F68 000:715.365   CPU_ReadMem(4 bytes @ 0x40083044)
T2F68 000:715.657   Data:  80 00 00 00
T2F68 000:715.665 - 0.309ms returns 4 (0x4)
T2F68 000:715.672 JLINK_ReadMemEx(0x4008304C, 0x18 Bytes, Flags = 0x02000004)
T2F68 000:715.679   CPU_ReadMem(24 bytes @ 0x4008304C)
T2F68 000:716.207   Data:  00 00 00 00 2A 00 00 00 00 00 00 00 00 00 00 00 ...
T2F68 000:716.290 - 0.620ms returns 24 (0x18)
T2F68 000:716.384 JLINK_ReadMemEx(0x40083064, 0x4 Bytes, Flags = 0x02000004)
T2F68 000:716.417   CPU_ReadMem(4 bytes @ 0x40083064)
T2F68 000:716.848   Data:  00 00 00 00
T2F68 000:716.856 - 0.474ms returns 4 (0x4)
T2F68 000:716.862 JLINK_ReadMemEx(0x40083070, 0x4 Bytes, Flags = 0x02000004)
T2F68 000:716.870   CPU_ReadMem(4 bytes @ 0x40083070)
T2F68 000:717.160   Data:  00 00 00 00
T2F68 000:717.168 - 0.308ms returns 4 (0x4)
T2F68 000:717.175 JLINK_ReadMemEx(0x4008307C, 0x4 Bytes, Flags = 0x02000004)
T2F68 000:717.182   CPU_ReadMem(4 bytes @ 0x4008307C)
T2F68 000:717.863   Data:  00 00 00 00
T2F68 000:717.912 - 0.738ms returns 4 (0x4)
T2F68 001:731.896 JLINK_HasError()
T2F68 001:731.923 JLINK_ReadReg(R0)
T2F68 001:732.464 - 0.559ms returns 0x00000000
T2F68 001:732.487 JLINK_ReadReg(R1)
T2F68 001:732.493 - 0.007ms returns 0x00000000
T2F68 001:732.498 JLINK_ReadReg(R2)
T2F68 001:732.503 - 0.007ms returns 0x00000000
T2F68 001:732.509 JLINK_ReadReg(R3)
T2F68 001:732.513 - 0.007ms returns 0x00000000
T2F68 001:732.519 JLINK_ReadReg(R4)
T2F68 001:732.524 - 0.007ms returns 0x00000000
T2F68 001:732.529 JLINK_ReadReg(R5)
T2F68 001:732.534 - 0.007ms returns 0x00000000
T2F68 001:732.539 JLINK_ReadReg(R6)
T2F68 001:732.544 - 0.007ms returns 0x00000000
T2F68 001:732.549 JLINK_ReadReg(R7)
T2F68 001:732.554 - 0.007ms returns 0x00000000
T2F68 001:732.559 JLINK_ReadReg(R8)
T2F68 001:732.568 - 0.010ms returns 0x00000000
T2F68 001:732.573 JLINK_ReadReg(R9)
T2F68 001:732.578 - 0.007ms returns 0x00000000
T2F68 001:732.583 JLINK_ReadReg(R10)
T2F68 001:732.588 - 0.007ms returns 0x00000000
T2F68 001:732.593 JLINK_ReadReg(R11)
T2F68 001:732.598 - 0.007ms returns 0x00000000
T2F68 001:732.604 JLINK_ReadReg(R12)
T2F68 001:732.609 - 0.007ms returns 0x00000000
T2F68 001:732.614 JLINK_ReadReg(R13 (SP))
T2F68 001:732.619 - 0.007ms returns 0x20003650
T2F68 001:732.624 JLINK_ReadReg(R14)
T2F68 001:732.629 - 0.011ms returns 0xFFFFFFFF
T2F68 001:732.641 JLINK_ReadReg(R15 (PC))
T2F68 001:732.646 - 0.007ms returns 0x000001F8
T2F68 001:732.651 JLINK_ReadReg(XPSR)
T2F68 001:732.656 - 0.007ms returns 0x01000000
T2F68 001:732.661 JLINK_ReadReg(MSP)
T2F68 001:732.666 - 0.007ms returns 0x20003650
T2F68 001:732.672 JLINK_ReadReg(PSP)
T2F68 001:732.677 - 0.007ms returns 0x00000000
T2F68 001:732.682 JLINK_ReadReg(CFBP)
T2F68 001:732.687 - 0.007ms returns 0x00000000
T2F68 001:732.692 JLINK_ReadReg(FPSCR)
T2F68 001:739.465 - 6.787ms returns 0x00000000
T2F68 001:739.493 JLINK_ReadReg(FPS0)
T2F68 001:739.511 - 0.026ms returns 0x00000000
T2F68 001:739.529 JLINK_ReadReg(FPS1)
T2F68 001:739.545 - 0.023ms returns 0x00000000
T2F68 001:739.562 JLINK_ReadReg(FPS2)
T2F68 001:739.578 - 0.023ms returns 0x00000000
T2F68 001:739.595 JLINK_ReadReg(FPS3)
T2F68 001:739.610 - 0.023ms returns 0x00000000
T2F68 001:739.628 JLINK_ReadReg(FPS4)
T2F68 001:739.644 - 0.023ms returns 0x00000000
T2F68 001:739.661 JLINK_ReadReg(FPS5)
T2F68 001:739.677 - 0.023ms returns 0x00000000
T2F68 001:739.694 JLINK_ReadReg(FPS6)
T2F68 001:739.710 - 0.023ms returns 0x00000000
T2F68 001:739.728 JLINK_ReadReg(FPS7)
T2F68 001:739.743 - 0.023ms returns 0x00000000
T2F68 001:739.760 JLINK_ReadReg(FPS8)
T2F68 001:739.776 - 0.023ms returns 0x00000000
T2F68 001:739.793 JLINK_ReadReg(FPS9)
T2F68 001:739.809 - 0.023ms returns 0x00000000
T2F68 001:739.827 JLINK_ReadReg(FPS10)
T2F68 001:739.842 - 0.023ms returns 0x00000000
T2F68 001:739.859 JLINK_ReadReg(FPS11)
T2F68 001:739.875 - 0.023ms returns 0x00000000
T2F68 001:739.892 JLINK_ReadReg(FPS12)
T2F68 001:739.908 - 0.023ms returns 0x00000000
T2F68 001:739.926 JLINK_ReadReg(FPS13)
T2F68 001:739.941 - 0.023ms returns 0x00000000
T2F68 001:739.959 JLINK_ReadReg(FPS14)
T2F68 001:739.974 - 0.023ms returns 0x00000000
T2F68 001:739.991 JLINK_ReadReg(FPS15)
T2F68 001:740.007 - 0.023ms returns 0x00000000
T2F68 001:740.024 JLINK_ReadReg(FPS16)
T2F68 001:740.040 - 0.023ms returns 0x00000000
T2F68 001:740.057 JLINK_ReadReg(FPS17)
T2F68 001:740.073 - 0.023ms returns 0x00000000
T2F68 001:740.090 JLINK_ReadReg(FPS18)
T2F68 001:740.106 - 0.023ms returns 0x00000000
T2F68 001:740.123 JLINK_ReadReg(FPS19)
T2F68 001:740.139 - 0.023ms returns 0x00000000
T2F68 001:740.156 JLINK_ReadReg(FPS20)
T2F68 001:740.172 - 0.023ms returns 0x00000000
T2F68 001:740.189 JLINK_ReadReg(FPS21)
T2F68 001:740.205 - 0.023ms returns 0x00000000
T2F68 001:740.222 JLINK_ReadReg(FPS22)
T2F68 001:740.238 - 0.023ms returns 0x00000000
T2F68 001:740.255 JLINK_ReadReg(FPS23)
T2F68 001:740.271 - 0.023ms returns 0x00000000
T2F68 001:740.288 JLINK_ReadReg(FPS24)
T2F68 001:740.304 - 0.023ms returns 0x00000000
T2F68 001:740.321 JLINK_ReadReg(FPS25)
T2F68 001:740.337 - 0.023ms returns 0x00000000
T2F68 001:740.354 JLINK_ReadReg(FPS26)
T2F68 001:740.370 - 0.023ms returns 0x00000000
T2F68 001:740.387 JLINK_ReadReg(FPS27)
T2F68 001:740.403 - 0.023ms returns 0x00000000
T2F68 001:740.420 JLINK_ReadReg(FPS28)
T2F68 001:740.436 - 0.026ms returns 0x00000000
T2F68 001:740.481 JLINK_ReadReg(FPS29)
T2F68 001:740.498 - 0.024ms returns 0x00000000
T2F68 001:740.516 JLINK_ReadReg(FPS30)
T2F68 001:740.531 - 0.023ms returns 0x00000000
T2F68 001:740.549 JLINK_ReadReg(FPS31)
T2F68 001:740.565 - 0.023ms returns 0x00000000
T2F68 001:740.706 JLINK_ReadMemEx(0x21000D70, 0x220 Bytes, Flags = 0x02000000)
T2F68 001:740.742   CPU_ReadMem(544 bytes @ 0x21000D70)
T2F68 001:746.072   Data:  15 AB 67 8C CA CC 8C 53 F9 9A 87 2F A3 BB E8 39 ...
T2F68 001:746.099 - 5.399ms returns 544 (0x220)
T2F68 001:750.589 JLINK_ReadMemEx(0x21000D70, 0x220 Bytes, Flags = 0x02000000)
T2F68 001:750.631   CPU_ReadMem(544 bytes @ 0x21000D70)
T2F68 001:755.958   Data:  15 AB 67 8C CA CC 8C 53 F9 9A 87 2F A3 BB E8 39 ...
T2F68 001:755.991 - 5.410ms returns 544 (0x220)
T2F68 001:757.122 JLINK_ReadMemEx(0x21000D70, 0x220 Bytes, Flags = 0x02000000)
T2F68 001:757.171   CPU_ReadMem(544 bytes @ 0x21000D70)
T2F68 001:762.476   Data:  15 AB 67 8C CA CC 8C 53 F9 9A 87 2F A3 BB E8 39 ...
T2F68 001:762.547 - 5.437ms returns 544 (0x220)
T2F68 001:986.176 JLINK_ReadMemEx(0x200013DA, 0x20 Bytes, Flags = 0x02000000)
T2F68 001:986.211   CPU_ReadMem(64 bytes @ 0x200013C0)
T2F68 001:987.051    -- Updating C cache (64 bytes @ 0x200013C0)
T2F68 001:987.074    -- Read from C cache (32 bytes @ 0x200013DA)
T2F68 001:987.082   Data:  00 00 00 00 00 00 00 00 00 00 00 00 00 00 00 00 ...
T2F68 001:987.088 - 0.914ms returns 32 (0x20)
T2F68 001:987.685 JLINK_ReadMemEx(0x200015DA, 0x20 Bytes, Flags = 0x02000000)
T2F68 001:987.702   CPU_ReadMem(64 bytes @ 0x200015C0)
T2F68 001:988.790    -- Updating C cache (64 bytes @ 0x200015C0)
T2F68 001:988.799    -- Read from C cache (32 bytes @ 0x200015DA)
T2F68 001:988.806   Data:  00 00 00 00 00 00 00 00 00 00 00 00 00 00 00 00 ...
T2F68 001:988.812 - 1.129ms returns 32 (0x20)
T2F68 002:010.603 JLINK_ReadMemEx(0x21000000, 0x220 Bytes, Flags = 0x02000000)
T2F68 002:010.636   CPU_ReadMem(544 bytes @ 0x21000000)
T2F68 002:015.536   Data:  02 98 38 00 02 98 44 00 02 98 96 01 02 98 A4 01 ...
T2F68 002:015.590 - 4.998ms returns 544 (0x220)
T2F68 002:024.001 JLINK_ReadMemEx(0x21000000, 0x220 Bytes, Flags = 0x02000000)
T2F68 002:024.069   CPU_ReadMem(544 bytes @ 0x21000000)
T2F68 002:029.027   Data:  02 98 38 00 02 98 44 00 02 98 96 01 02 98 A4 01 ...
T2F68 002:029.071 - 5.077ms returns 544 (0x220)
T2044 002:050.504 JLINK_ReadMemEx(0x000001F8, 0x2 Bytes, Flags = 0x02000000)
T2044 002:050.529    -- Read from C cache (2 bytes @ 0x000001F8)
T2044 002:050.537   Data:  09 48
T2044 002:050.544 - 0.042ms returns 2 (0x2)
T2044 002:050.551 JLINK_HasError()
T2044 002:050.558 JLINK_SetBPEx(Addr = 0x000067FC, Type = 0xFFFFFFF2)
